
**** 11/11/24 17:17:13 ****** PSpice 17.2.0 (March 2016) ****** ID# 0 ********

 ** Profile: "SCHEMATIC1-s1"  [ C:\Users\Usuario_UMA\Downloads\CREATIVA\CREATIVA\CREATIVA\mesa_de_mezclas-pspicefiles\schematic1\s1.s


 ****     CIRCUIT DESCRIPTION


******************************************************************************




** Creating circuit file "s1.cir" 
** WARNING: THIS AUTOMATICALLY GENERATED FILE MAY BE OVERWRITTEN BY SUBSEQUENT SIMULATIONS

*Libraries: 
* Profile Libraries :
* Local Libraries :
* From [PSPICE NETLIST] section of C:\Users\Usuario_UMA\AppData\Roaming\SPB_Data\cdssetup\OrCAD_PSpice\17.2.0\PSpice.ini file:
.lib "nom.lib" 

*Analysis directives: 
.TRAN  0 5ms 0 
.OPTIONS ADVCONV
.PROBE64 V(alias(*)) I(alias(*)) W(alias(*)) D(alias(*)) NOISE(alias(*)) 
.INC "..\SCHEMATIC1.net" 



**** INCLUDING SCHEMATIC1.net ****
* source MESA_DE_MEZCLAS
C_CANAL1_C1         CANAL1_VIN CANAL1_N00354  2.2u  TC=0,0 
C_CANAL1_C2         CANAL1_N00459 CANAL1_N00448  3.3n  TC=0,0 
R_CANAL1_R1         CANAL1_N00354 CANAL1_N00320  10k TC=0,0 
R_CANAL1_R2         CANAL1_N00324 ENTRADA_DJ_CH1  10k TC=0,0 
R_CANAL1_R3         CANAL1_N00354 CANAL1_N00432  2.2k TC=0,0 
R_CANAL1_R4         CANAL1_N00444 ENTRADA_DJ_CH1  2.2k TC=0,0 
R_CANAL1_R5         CANAL1_N00382 CANAL1_N00448  9k TC=0,0 
X_CANAL1_U1A         0 CANAL1_N00448 5 -5 ENTRADA_DJ_CH1 TL082/301/TI
C_CANAL1_C3         CANAL1_N00320 CANAL1_N00324  33n  TC=0,0 
X_CANAL1_R6         CANAL1_N00320 CANAL1_N00382 CANAL1_N00324 POT PARAMS: SET=
+ {graves} VALUE=100k
X_CANAL1_R7         CANAL1_N00432 CANAL1_N00459 CANAL1_N00444 POT PARAMS: SET=1
+  VALUE=470k
V_CANAL1_V1         CANAL1_VIN 0 DC 0Vdc AC 0.1Vac 
C_CANAL2_C1         CANAL2_VIN2 CANAL2_N02102  2.2u  TC=0,0 
R_CANAL2_R4         CANAL2_N02370 ENTRADA_DJ_CH2  2.2k TC=0,0 
X_CANAL2_U1A         0 CANAL2_N02194 5 -5 ENTRADA_DJ_CH2 TL082/301/TI
R_CANAL2_R3         CANAL2_N02102 CANAL2_N02364  2.2k TC=0,0 
R_CANAL2_R1         CANAL2_N02102 CANAL2_N01984  10k TC=0,0 
R_CANAL2_R5         CANAL2_N02150 CANAL2_N02194  9k TC=0,0 
R_CANAL2_R2         CANAL2_N01994 ENTRADA_DJ_CH2  10k TC=0,0 
X_CANAL2_R7         CANAL2_N02364 CANAL2_N02394 CANAL2_N02370 POT PARAMS: SET=0
+  VALUE=470k
X_CANAL2_R6         CANAL2_N01984 CANAL2_N02150 CANAL2_N01994 POT PARAMS: SET=
+ {graves} VALUE=100k
C_CANAL2_C2         CANAL2_N02394 CANAL2_N02194  3.3n  TC=0,0 
C_CANAL2_C3         CANAL2_N01984 CANAL2_N01994  33n  TC=0,0 
V_CANAL2_V1         CANAL2_VIN2 0 DC 0Vdc AC 0.1Vac 
X_BALANCE_PUBLICO_R1         BALANCE_PUBLICO_N01896 BALANCE_PUBLICO_N01889
+  BALANCE_PUBLICO_N01865 POT PARAMS: SET=0.5 VALUE=50K
X_BALANCE_PUBLICO_R2         BALANCE_PUBLICO_N01972 BALANCE_PUBLICO_N01965
+  BALANCE_PUBLICO_N01961 POT PARAMS: SET=0.5 VALUE=50K
R_BALANCE_PUBLICO_R3         ENTRADA_DJ_CH1 BALANCE_PUBLICO_N01865  5K TC=0,0 
R_BALANCE_PUBLICO_R4         ENTRADA_DJ_CH2 BALANCE_PUBLICO_N01961  5K TC=0,0 
X_BALANCE_PUBLICO_U1A         0 BALANCE_PUBLICO_N01889 5V -5V
+  BALANCE_PUBLICO_N01896 TL082/301/TI
X_BALANCE_PUBLICO_U1B         0 BALANCE_PUBLICO_N01965 5V -5V
+  BALANCE_PUBLICO_N01972 TL082/301/TI
X_BALANCE_PUBLICO_U2         0 BALANCE_PUBLICO_N02519 5V -5V SALIDA_PUBLICO
+  OP-07C/301/TI
R_BALANCE_PUBLICO_R5         BALANCE_PUBLICO_N02519 SALIDA_PUBLICO  5M TC=0,0 
R_BALANCE_PUBLICO_R6         BALANCE_PUBLICO_N02519 BALANCE_PUBLICO_N01896  10K
+  TC=0,0 
R_BALANCE_PUBLICO_R7         BALANCE_PUBLICO_N01972 BALANCE_PUBLICO_N02519  10K
+  TC=0,0 
X_BALANCE_DJ_R2         BALANCE_DJ_N03496 BALANCE_DJ_N03536 BALANCE_DJ_N03602
+  POT PARAMS: SET=0.5 VALUE=50K
X_BALANCE_DJ_U1A         0 BALANCE_DJ_N03234 5V -5V BALANCE_DJ_N03226
+  TL082/301/TI
R_BALANCE_DJ_R3         ENTRADA_DJ_CH1 BALANCE_DJ_N03310  5K TC=0,0 
X_BALANCE_DJ_U3B         0 BALANCE_DJ_N03536 5V -5V BALANCE_DJ_N03496
+  TL082/301/TI
R_BALANCE_DJ_R4         ENTRADA_DJ_CH2 BALANCE_DJ_N03602  5K TC=0,0 
R_BALANCE_DJ_R6         BALANCE_DJ_N03346 BALANCE_DJ_N03226  10K TC=0,0 
X_BALANCE_DJ_R1         BALANCE_DJ_N03226 BALANCE_DJ_N03234 BALANCE_DJ_N03310
+  POT PARAMS: SET=0.5 VALUE=50K
R_BALANCE_DJ_R5         BALANCE_DJ_N03346 ENTRADA_AURICULARES  100K TC=0,0 
X_BALANCE_DJ_U2         0 BALANCE_DJ_N03346 5V -5V ENTRADA_AURICULARES
+  OP-07C/301/TI
R_BALANCE_DJ_R7         BALANCE_DJ_N03496 BALANCE_DJ_N03346  10K TC=0,0 
C_AURICULARES_C1         AURICULARES_N00291 ENTRADA_AURICULARES  10u  
X_AURICULARES_U1A         AURICULARES_N00291 AURICULARES_N00430 5V -5V
+  AURICULARES_N00483 TL082
R_AURICULARES_R1         0 AURICULARES_N00291  10K TC=0,0 
R_AURICULARES_R2         0 AURICULARES_N00430  10K TC=0,0 
R_AURICULARES_R6         AURICULARES_N01079 AURICULARES_N00430  71.2K TC=0,0 
D_AURICULARES_D1         AURICULARES_N00946 AURICULARES_N00483 D1N4148 
D_AURICULARES_D2         AURICULARES_N00483 AURICULARES_N01000 D1N4148 
R_AURICULARES_R12         AURICULARES_N00946 5V  1K TC=0,0 
R_AURICULARES_R11         -5V AURICULARES_N01000  1K TC=0,0 
R_AURICULARES_R10         AURICULARES_N01079 AURICULARES_N00960  1 TC=0,0 
R_AURICULARES_R9         AURICULARES_N01083 AURICULARES_N01079  1 TC=0,0 
Q_AURICULARES_Q1         -5V AURICULARES_N01000 AURICULARES_N01083 MPSA92
Q_AURICULARES_Q3         5V AURICULARES_N00946 AURICULARES_N00960 MPSA42
C_AURICULARES_C2         AURICULARES_N01079 SALIDA_AURICULARES  220u  
R_AURICULARES_R8         SALIDA_AURICULARES 0  33 TC=0,0 
V_AURICULARES_V2         ENTRADA_AURICULARES 0  AC 0
+SIN 0 0.447 1K 0 0 0
.PARAM  graves=0.5

**** RESUMING s1.cir ****
.END

**** 11/11/24 17:17:13 ****** PSpice 17.2.0 (March 2016) ****** ID# 0 ********

 ** Profile: "SCHEMATIC1-s1"  [ C:\Users\Usuario_UMA\Downloads\CREATIVA\CREATIVA\CREATIVA\mesa_de_mezclas-pspicefiles\schematic1\s1.s


 ****     Diode MODEL PARAMETERS


******************************************************************************




               D1N4148         X_CANAL1_U1A.DX X_CANAL2_U1A.DX 
          IS    2.682000E-09  800.000000E-18  800.000000E-18 
           N    1.836                                        
         ISR    1.565000E-09                                 
         IKF     .04417                                      
          BV  100                                            
         IBV  100.000000E-06                                 
          RS     .5664                                       
          TT   11.540000E-09                                 
         CJO    4.000000E-12                                 
          VJ     .5                                          
           M     .3333                                       


               X_BALANCE_PUBLICO_U1A.DX 
          IS  800.000000E-18 


               X_BALANCE_PUBLICO_U1B.DX 
          IS  800.000000E-18 


               X_BALANCE_PUBLICO_U2.DX 
          IS  800.000000E-18 


               X_BALANCE_DJ_U1A.DX 
          IS  800.000000E-18 


               X_BALANCE_DJ_U3B.DX 
          IS  800.000000E-18 


               X_BALANCE_DJ_U2.DX 
          IS  800.000000E-18 


               X_AURICULARES_U1A.dx 
          IS  800.000000E-18 


               X_AURICULARES_U1A.dy 
          IS  800.000000E-18 
          RS    1.000000E-03 
         CJO   10.000000E-12 


**** 11/11/24 17:17:13 ****** PSpice 17.2.0 (March 2016) ****** ID# 0 ********

 ** Profile: "SCHEMATIC1-s1"  [ C:\Users\Usuario_UMA\Downloads\CREATIVA\CREATIVA\CREATIVA\mesa_de_mezclas-pspicefiles\schematic1\s1.s


 ****     BJT MODEL PARAMETERS


******************************************************************************




               MPSA92          MPSA42          
               PNP             NPN             
       LEVEL    1               1            
          IS  218.900000E-15   34.900000E-15 
          BF   99               2.650000E+03 
          NF    1               1            
         VAF  100             100            
         IKF     .2016           .02379      
         ISE  218.900000E-15   16.320000E-12 
          NE    1.307           1.708        
          BR   24.67            9.769        
          NR    1               1            
         ISS    0               0            
          RB   10              10            
          RE    0               0            
          RC    7               7            
         CJE   81.490000E-12   49.620000E-12 
         VJE     .75             .75         
         MJE     .3493           .4136       
         CJC   19.880000E-12   14.230000E-12 
         VJC     .75             .75         
         MJC     .4876           .5489       
        XCJC    1               1            
         CJS    0               0            
         VJS     .75             .75         
          TF    1.395000E-09    1.690000E-09 
         XTF  270             150            
         VTF   22              20            
         ITF    1.5             5            
          TR  516.900000E-12  934.300000E-12 
         XTB    1.5             1.5          
          KF    0               0            
          AF    1               1            
          CN    2.2             2.42         
           D     .52             .87         


               X_BALANCE_PUBLICO_U2.QX 
               NPN             
       LEVEL    1            
          IS  800.000000E-18 
          BF    5.357000E+03 
          NF    1            
          BR    1            
          NR    1            
         ISS    0            
          RE    0            
          RC    0            
         CJE    0            
         VJE     .75         
         CJC    0            
         VJC     .75         
         MJC     .33         
        XCJC    1            
         CJS    0            
         VJS     .75         
          KF    0            
          AF    1            
          CN    2.42         
           D     .87         


               X_BALANCE_DJ_U2.QX 
               NPN             
       LEVEL    1            
          IS  800.000000E-18 
          BF    5.357000E+03 
          NF    1            
          BR    1            
          NR    1            
         ISS    0            
          RE    0            
          RC    0            
         CJE    0            
         VJE     .75         
         CJC    0            
         VJC     .75         
         MJC     .33         
        XCJC    1            
         CJS    0            
         VJS     .75         
          KF    0            
          AF    1            
          CN    2.42         
           D     .87         


**** 11/11/24 17:17:13 ****** PSpice 17.2.0 (March 2016) ****** ID# 0 ********

 ** Profile: "SCHEMATIC1-s1"  [ C:\Users\Usuario_UMA\Downloads\CREATIVA\CREATIVA\CREATIVA\mesa_de_mezclas-pspicefiles\schematic1\s1.s


 ****     Junction FET MODEL PARAMETERS


******************************************************************************




               X_CANAL1_U1A.JX X_CANAL2_U1A.JX 
               PJF             PJF             
         VTO   -1              -1            
        BETA  270.100000E-06  270.100000E-06 
          IS   15.000000E-12   15.000000E-12 


               X_BALANCE_PUBLICO_U1A.JX 
               PJF             
         VTO   -1            
        BETA  270.100000E-06 
          IS   15.000000E-12 


               X_BALANCE_PUBLICO_U1B.JX 
               PJF             
         VTO   -1            
        BETA  270.100000E-06 
          IS   15.000000E-12 


               X_BALANCE_DJ_U1A.JX 
               PJF             
         VTO   -1            
        BETA  270.100000E-06 
          IS   15.000000E-12 


               X_BALANCE_DJ_U3B.JX 
               PJF             
         VTO   -1            
        BETA  270.100000E-06 
          IS   15.000000E-12 


               X_AURICULARES_U1A.jx1 
               NJF             
         VTO   -1            
        BETA  222.070000E-06 
          IS  100.000000E-12 


               X_AURICULARES_U1A.jx2 
               NJF             
         VTO   -1            
        BETA  222.070000E-06 
          IS  100.000000E-12 


**** 11/11/24 17:17:13 ****** PSpice 17.2.0 (March 2016) ****** ID# 0 ********

 ** Profile: "SCHEMATIC1-s1"  [ C:\Users\Usuario_UMA\Downloads\CREATIVA\CREATIVA\CREATIVA\mesa_de_mezclas-pspicefiles\schematic1\s1.s


 ****     INITIAL TRANSIENT SOLUTION       TEMPERATURE =   27.000 DEG C


******************************************************************************



 NODE   VOLTAGE     NODE   VOLTAGE     NODE   VOLTAGE     NODE   VOLTAGE


(    5)    1.4693  (   -5)   -1.4667  (   5V)    2.1250  (  -5V)   -2.1249      

(CANAL1_VIN)    0.0000                (CANAL2_VIN2)    0.0000                   

(CANAL1_N00320)     .0013             (CANAL1_N00324)     .0013                 

(CANAL1_N00354)     .0013             (CANAL1_N00382)     .0013                 

(CANAL1_N00432)     .0013             (CANAL1_N00444)     .0013                 

(CANAL1_N00448)     .0013             (CANAL1_N00459)     .0013                 

(CANAL2_N01984)     .0013             (CANAL2_N01994)     .0013                 

(CANAL2_N02102)     .0013             (CANAL2_N02150)     .0013                 

(CANAL2_N02194)     .0013             (CANAL2_N02364)     .0013                 

(CANAL2_N02370)     .0013             (CANAL2_N02394)     .0013                 

(ENTRADA_DJ_CH1)     .0013            (ENTRADA_DJ_CH2)     .0013                

(SALIDA_PUBLICO) 86.06E-06            (X_CANAL1_U1A.6)     .0413                

(X_CANAL1_U1A.7)     .0012            (X_CANAL1_U1A.8)     .0012                

(X_CANAL1_U1A.9)    0.0000            (X_CANAL2_U1A.6)     .0413                

(X_CANAL2_U1A.7)     .0012            (X_CANAL2_U1A.8)     .0012                

(X_CANAL2_U1A.9)    0.0000            (X_CANAL1_U1A.10)    -.3979               

(X_CANAL1_U1A.11)   -1.1220           (X_CANAL1_U1A.12)   -1.1205               

(X_CANAL1_U1A.53)    -.7307           (X_CANAL1_U1A.54)     .7333               

(X_CANAL1_U1A.90)-304.3E-06           (X_CANAL1_U1A.91)   25.0000               

(X_CANAL1_U1A.92)  -25.0000           (X_CANAL1_U1A.99)     .0013               

(X_CANAL2_U1A.10)    -.3979           (X_CANAL2_U1A.11)   -1.1220               

(X_CANAL2_U1A.12)   -1.1205           (X_CANAL2_U1A.53)    -.7307               

(X_CANAL2_U1A.54)     .7333           (X_CANAL2_U1A.90)-304.3E-06               

(X_CANAL2_U1A.91)   25.0000           (X_CANAL2_U1A.92)  -25.0000               

(X_CANAL2_U1A.99)     .0013           (BALANCE_DJ_N03226)    -.0010             

(BALANCE_DJ_N03234) 10.98E-06         (BALANCE_DJ_N03310)     .0011             

(BALANCE_DJ_N03346)    -.0010         (BALANCE_DJ_N03496)    -.0010             

(BALANCE_DJ_N03536) 10.98E-06         (BALANCE_DJ_N03602)     .0011             

(X_BALANCE_DJ_U2.6)    -.0113         (X_BALANCE_DJ_U2.7)     .6194             

(X_BALANCE_DJ_U2.8)     .6194         (X_BALANCE_DJ_U2.9)    0.0000             

(AURICULARES_N00291) 2.021E-06        (AURICULARES_N00430)-12.21E-06            

(AURICULARES_N00483)     .0255        (AURICULARES_N00946)     .6478            

(AURICULARES_N00960)     .0021        (AURICULARES_N01000)    -.5986            

(AURICULARES_N01079)-113.6E-06        (AURICULARES_N01083)    -.0024            

(SALIDA_AURICULARES)    0.0000        (X_BALANCE_DJ_U1A.6) 162.8E-09            

(X_BALANCE_DJ_U1A.7)    -.0011        (X_BALANCE_DJ_U1A.8)    -.0011            

(X_BALANCE_DJ_U1A.9)    0.0000        (X_BALANCE_DJ_U2.10)    -.5836            

(X_BALANCE_DJ_U2.11)    2.0925        (X_BALANCE_DJ_U2.12)    2.0915            

(X_BALANCE_DJ_U2.13)    -.5765        (X_BALANCE_DJ_U2.14)    -.5763            

(X_BALANCE_DJ_U2.53)    -.7750        (X_BALANCE_DJ_U2.54)     .7751            

(X_BALANCE_DJ_U2.90)   20.6460        (X_BALANCE_DJ_U2.91)   20.0000            

(X_BALANCE_DJ_U2.92)  -20.0000        (X_BALANCE_DJ_U2.99) 86.08E-06            

(X_BALANCE_DJ_U3B.6) 162.8E-09        (X_BALANCE_DJ_U3B.7)    -.0011            

(X_BALANCE_DJ_U3B.8)    -.0011        (X_BALANCE_DJ_U3B.9)    0.0000            

(ENTRADA_AURICULARES)    0.0000       (X_AURICULARES_U1A.6)-2.788E-06           

(X_AURICULARES_U1A.7)     .0282       (X_AURICULARES_U1A.8)     .0282           

(X_AURICULARES_U1A.9)    0.0000       (X_BALANCE_DJ_U1A.10)    -.3986           

(X_BALANCE_DJ_U1A.11)   -1.7794       (X_BALANCE_DJ_U1A.12)   -1.7794           

(X_BALANCE_DJ_U1A.53)    -.0750       (X_BALANCE_DJ_U1A.54)     .0751           

(X_BALANCE_DJ_U1A.90)-47.05E-06       (X_BALANCE_DJ_U1A.91)   25.0000           

(X_BALANCE_DJ_U1A.92)  -25.0000       (X_BALANCE_DJ_U1A.99) 86.08E-06           

(X_BALANCE_DJ_U3B.10)    -.3986       (X_BALANCE_DJ_U3B.11)   -1.7794           

(X_BALANCE_DJ_U3B.12)   -1.7794       (X_BALANCE_DJ_U3B.53)    -.0750           

(X_BALANCE_DJ_U3B.54)     .0751       (X_BALANCE_DJ_U3B.90)-47.05E-06           

(X_BALANCE_DJ_U3B.91)   25.0000       (X_BALANCE_DJ_U3B.92)  -25.0000           

(X_BALANCE_DJ_U3B.99) 86.08E-06       (X_AURICULARES_U1A.10)     .3992          

(X_AURICULARES_U1A.11)    1.6998      (X_AURICULARES_U1A.12)    1.6998          

(X_AURICULARES_U1A.53)    -.1908      (X_AURICULARES_U1A.54)     .1909          

(X_AURICULARES_U1A.90)     .0537      (X_AURICULARES_U1A.91)   40.0000          

(X_AURICULARES_U1A.92)  -40.0000      (X_AURICULARES_U1A.99) 86.08E-06          

(BALANCE_PUBLICO_N01865)     .0011    (BALANCE_PUBLICO_N01889) 10.98E-06        

(BALANCE_PUBLICO_N01896)    -.0010    (BALANCE_PUBLICO_N01961)     .0011        

(BALANCE_PUBLICO_N01965) 10.98E-06    (BALANCE_PUBLICO_N01972)    -.0010        

(BALANCE_PUBLICO_N02519) 86.05E-06    (X_BALANCE_PUBLICO_U2.6) 967.8E-06        

(X_BALANCE_PUBLICO_U2.7) 92.45E-06    (X_BALANCE_PUBLICO_U2.8) 92.45E-06        

(X_BALANCE_PUBLICO_U2.9)    0.0000    (X_BALANCE_PUBLICO_U1A.6) 167.4E-09       

(X_BALANCE_PUBLICO_U1A.7)    -.0011   (X_BALANCE_PUBLICO_U1A.8)    -.0011       

(X_BALANCE_PUBLICO_U1A.9)    0.0000   (X_BALANCE_PUBLICO_U1B.6) 167.4E-09       

(X_BALANCE_PUBLICO_U1B.7)    -.0011   (X_BALANCE_PUBLICO_U1B.8)    -.0011       

(X_BALANCE_PUBLICO_U1B.9)    0.0000   (X_BALANCE_PUBLICO_U2.10)    -.5831       

(X_BALANCE_PUBLICO_U2.11)    2.0919   (X_BALANCE_PUBLICO_U2.12)    2.0920       

(X_BALANCE_PUBLICO_U2.13)    -.5758   (X_BALANCE_PUBLICO_U2.14)    -.5758       

(X_BALANCE_PUBLICO_U2.53)    -.7750   (X_BALANCE_PUBLICO_U2.54)     .7751       

(X_BALANCE_PUBLICO_U2.90) 213.3E-06   (X_BALANCE_PUBLICO_U2.91)   20.0000       

(X_BALANCE_PUBLICO_U2.92)  -20.0000   (X_BALANCE_PUBLICO_U2.99) 86.08E-06       

(X_BALANCE_PUBLICO_U1A.10)    -.3986  (X_BALANCE_PUBLICO_U1A.11)   -1.7794      

(X_BALANCE_PUBLICO_U1A.12)   -1.7794  (X_BALANCE_PUBLICO_U1A.53)    -.0750      

(X_BALANCE_PUBLICO_U1A.54)     .0751  (X_BALANCE_PUBLICO_U1A.90)-155.8E-06      

(X_BALANCE_PUBLICO_U1A.91)   25.0000  (X_BALANCE_PUBLICO_U1A.92)  -25.0000      

(X_BALANCE_PUBLICO_U1A.99) 86.08E-06  (X_BALANCE_PUBLICO_U1B.10)    -.3986      

(X_BALANCE_PUBLICO_U1B.11)   -1.7794  (X_BALANCE_PUBLICO_U1B.12)   -1.7794      

(X_BALANCE_PUBLICO_U1B.53)    -.0750  (X_BALANCE_PUBLICO_U1B.54)     .0750      

(X_BALANCE_PUBLICO_U1B.90)-154.7E-06  (X_BALANCE_PUBLICO_U1B.91)   25.0000      

(X_BALANCE_PUBLICO_U1B.92)  -25.0000  (X_BALANCE_PUBLICO_U1B.99) 86.08E-06  




    VOLTAGE SOURCE CURRENTS
    NAME         CURRENT

    V_CANAL1_V1   0.000E+00
    V_CANAL2_V1   0.000E+00
    V_AURICULARES_V2   2.070E-02
    X_CANAL1_U1A.VB   4.127E-07
    X_CANAL1_U1A.VC  -1.565E-03
    X_CANAL1_U1A.VE  -1.565E-03
    X_CANAL1_U1A.VLIM  -3.043E-07
    X_CANAL1_U1A.VLP  -2.500E-11
    X_CANAL1_U1A.VLN  -2.500E-11
    X_CANAL2_U1A.VB   4.127E-07
    X_CANAL2_U1A.VC  -1.565E-03
    X_CANAL2_U1A.VE  -1.565E-03
    X_CANAL2_U1A.VLIM  -3.043E-07
    X_CANAL2_U1A.VLP  -2.500E-11
    X_CANAL2_U1A.VLN  -2.500E-11
